;$FILEVERSION=2.0
;$STARTTIME=46077.4037396065
;$COLUMNS=N,O,T,I,d,l,D
;
;   Start time: 24/02/2026 09:41:23.102.0
;   Generated by PCAN-View v5.3.3.958
;   Message   Time    Type ID     Rx/Tx
;   Number    Offset  |    [hex]  |  Data Length
;   |         [ms]    |    |      |  |  Data [hex] ...
;   |         |       |    |      |  |  |
;---+-- ------+------ +- --+----- +- +- +- +- -- -- -- -- -- -- --
      1         0.227 DT     05A0 Rx 8  7B 00 00 00 20 00 00 ED 
      2         1.835 DT     0320 Rx 8  00 04 43 01 00 00 00 00 
      3         2.149 DT     0050 Rx 4  00 A0 20 20 
      4         5.352 DT     00C2 Tx 8  FF FF FF FF FF FF FF FF 
      5         4.875 DT     0572 Rx 1  07 
      6         6.229 DT     00C2 Rx 8  64 00 00 00 80 40 00 A4 
      7         9.602 DT     00C2 Tx 8  FF FF FF FF FF FF FF FF 
      8        14.234 DT     01A0 Rx 8  00 00 00 00 FE FE 00 13 
      9        15.965 DT     00C2 Tx 8  FF FF FF FF FF FF FF FF 
     10        16.239 DT     04A0 Rx 8  00 00 00 00 00 00 00 00 
     11        16.726 DT     00C2 Rx 8  64 00 00 00 80 50 00 B4 
     12        18.234 DT     04A8 Rx 8  28 80 03 10 FE 00 30 75 
     13        20.013 DT     00C2 Tx 8  FF FF FF FF FF FF FF FF 
     14        20.236 DT     05A0 Rx 8  7B 00 00 00 30 00 00 ED 
     15        21.780 DT     0320 Rx 8  00 04 43 01 00 00 00 00 
     16        22.158 DT     0050 Rx 4  00 A0 30 30 
     17        24.651 DT     00C2 Tx 8  FF FF FF FF FF FF FF FF 
     18        26.240 DT     00C2 Rx 8  64 00 00 00 80 60 00 84 
     19        29.664 DT     00C2 Tx 8  FF FF FF FF FF FF FF FF 
     20        34.244 DT     01A0 Rx 8  00 00 00 00 FE FE 00 14 
     21        35.610 DT     00C2 Tx 8  FF FF FF FF FF FF FF FF 
     22        36.250 DT     04A0 Rx 8  00 00 00 00 00 00 00 00 
     23        36.506 DT     00C2 Rx 8  64 00 00 00 80 70 00 94 
     24        38.246 DT     04A8 Rx 8  28 80 03 10 FE 00 40 05 
     25        40.107 DT     00C2 Tx 8  FF FF FF FF FF FF FF FF 
     26        40.244 DT     05A0 Rx 8  7B 00 00 00 40 00 00 ED 
     27        41.772 DT     0320 Rx 8  00 04 43 01 00 00 00 00 
     28        42.168 DT     0050 Rx 4  00 A0 40 40 
     29        46.110 DT     00C2 Tx 8  FF FF FF FF FF FF FF FF 
     30        46.252 DT     00C2 Rx 8  64 00 00 00 80 80 00 64 
     31        50.121 DT     00C2 Tx 8  FF FF FF FF FF FF FF FF 
     32        54.252 DT     01A0 Rx 8  00 00 00 00 FE FE 00 15 
     33        55.667 DT     00C2 Tx 8  FF FF FF FF FF FF FF FF 
     34        56.324 DT     04A0 Rx 8  00 00 00 00 00 00 00 00 
     35        56.578 DT     00C2 Rx 8  64 00 00 00 80 90 00 74 
     36        58.252 DT     04A8 Rx 8  28 80 03 10 FE 00 50 15 
     37        60.671 DT     00C2 Tx 8  FF FF FF FF FF FF FF FF 
     38        60.256 DT     05A0 Rx 8  7B 00 00 00 50 00 00 ED 
     39        61.836 DT     0390 Rx 8  10 00 00 00 40 00 00 00 
     40        62.032 DT     05D0 Rx 6  C0 14 61 20 28 47 
     41        62.202 DT     0050 Rx 4  00 A0 50 50 
     42        62.447 DT     0320 Rx 8  00 04 43 01 00 00 00 00 
     43        62.689 DT     0420 Rx 8  82 86 86 FF C0 16 00 00 
     44        62.939 DT     0520 Rx 8  01 00 00 00 80 00 00 00 
     45        64.660 DT     00C2 Tx 8  FF FF FF FF FF FF FF FF 
     46        66.259 DT     00C2 Rx 8  64 00 00 00 80 A0 00 44 
     47        68.145 DT     05F2 Rx 2  8C 8C 
     48        70.720 DT     00C2 Tx 8  FF FF FF FF FF FF FF FF 
     49        74.262 DT     01A0 Rx 8  00 00 00 00 FE FE 00 16 
     50        76.239 DT     00C2 Tx 8  FF FF FF FF FF FF FF FF 
     51        76.270 DT     04A0 Rx 8  00 00 00 00 00 00 00 00 
     52        76.522 DT     00C2 Rx 8  64 00 00 00 80 B0 00 54 
     53        78.266 DT     04A8 Rx 8  28 80 03 10 FE 00 60 25 
     54        80.247 DT     00C2 Tx 8  FF FF FF FF FF FF FF FF 
     55        80.264 DT     05A0 Rx 8  7B 00 00 00 60 00 00 ED 
     56        81.842 DT     0320 Rx 8  00 04 43 01 00 00 00 00 
     57        82.188 DT     0050 Rx 4  00 A0 60 60 
     58        85.219 DT     00C2 Tx 8  FF FF FF FF FF FF FF FF 
     59        86.272 DT     00C2 Rx 8  64 00 00 00 80 C0 00 24 
     60        91.242 DT     00C2 Tx 8  FF FF FF FF FF FF FF FF 
     61        95.269 DT     00C2 Tx 8  FF FF FF FF FF FF FF FF 
     62        94.274 DT     01A0 Rx 8  00 00 00 00 FE FE 00 17 
     63        96.278 DT     04A0 Rx 8  00 00 00 00 00 00 00 00 
     64        96.530 DT     00C2 Rx 8  64 00 00 00 80 D0 00 34 
     65        98.272 DT     04A8 Rx 8  28 80 03 10 FE 00 70 35 
     66       100.626 DT     00C2 Tx 8  FF FF FF FF FF FF FF FF 
     67       100.274 DT     05A0 Rx 8  7B 00 00 00 70 00 00 ED 
     68       101.847 DT     0320 Rx 8  00 04 43 01 00 00 00 00 
     69       102.195 DT     0050 Rx 4  00 A0 70 70 
     70       105.582 DT     00C2 Tx 8  FF FF FF FF FF FF FF FF 
     71       104.949 DT     0572 Rx 1  07 
     72       106.281 DT     00C2 Rx 8  64 00 00 00 80 E0 00 04 
     73       110.310 DT     00C2 Tx 8  FF FF FF FF FF FF FF FF 
     74       114.283 DT     01A0 Rx 8  00 00 00 00 FE FE 00 18 
     75       115.233 DT     00C2 Tx 8  FF FF FF FF FF FF FF FF 
     76       116.287 DT     04A0 Rx 8  00 00 00 00 00 00 00 00 
     77       116.541 DT     00C2 Rx 8  64 00 00 00 80 F0 00 14 
     78       118.281 DT     04A8 Rx 8  28 80 03 10 FE 00 80 C5 
     79       120.282 DT     00C2 Tx 8  FF FF FF FF FF FF FF FF 
     80       120.281 DT     05A0 Rx 8  7B 00 00 00 80 00 00 ED 
     81       121.873 DT     0320 Rx 8  00 04 43 01 00 00 00 00 
     82       122.207 DT     0050 Rx 4  00 A0 80 80 
     83       125.226 DT     00C2 Tx 8  FF FF FF FF FF FF FF FF 
     84       126.289 DT     00C2 Rx 8  64 00 00 00 80 00 00 E4 
     85       130.256 DT     00C2 Tx 8  FF FF FF FF FF FF FF FF 
     86       135.234 DT     00C2 Tx 8  FF FF FF FF FF FF FF FF 
     87       134.289 DT     01A0 Rx 8  00 00 00 00 FE FE 00 19 
     88       136.297 DT     04A0 Rx 8  00 00 00 00 00 00 00 00 
     89       136.551 DT     00C2 Rx 8  64 00 00 00 80 10 00 F4 
     90       138.287 DT     04A8 Rx 8  28 80 03 10 FE 00 90 D5 
     91       140.264 DT     00C2 Tx 8  FF FF FF FF FF FF FF FF 
     92       140.294 DT     05A0 Rx 8  7B 00 00 00 90 00 00 ED 
     93       141.872 DT     0320 Rx 8  00 04 43 01 00 00 00 00 
     94       142.214 DT     0050 Rx 4  00 A0 90 90 
     95       145.248 DT     00C2 Tx 8  FF FF FF FF FF FF FF FF 
     96       146.298 DT     00C2 Rx 8  64 00 00 00 80 20 00 C4 
     97       150.231 DT     00C2 Tx 8  FF FF FF FF FF FF FF FF 
     98       154.302 DT     01A0 Rx 8  00 00 00 00 FE FE 00 1A 
     99       155.219 DT     00C2 Tx 8  FF FF FF FF FF FF FF FF 
    100       156.306 DT     04A0 Rx 8  00 00 00 00 00 00 00 00 
    101       156.562 DT     00C2 Rx 8  64 00 00 00 80 30 00 D4 
    102       158.298 DT     04A8 Rx 8  28 80 03 10 FE 00 A0 E5 
    103       161.204 DT     00C2 Tx 8  FF FF FF FF FF FF FF FF 
    104       160.300 DT     05A0 Rx 8  7B 00 00 00 A0 00 00 ED 
    105       161.865 DT     0390 Rx 8  10 00 00 00 40 00 00 00 
    106       162.061 DT     05D0 Rx 6  C0 14 61 20 28 47 
    107       162.233 DT     0050 Rx 4  00 A0 A0 A0 
    108       162.477 DT     0320 Rx 8  00 04 43 01 00 00 00 00 
    109       164.205 DT     0550 Rx 3  00 80 80 
    110       166.209 DT     00C2 Tx 8  FF FF FF FF FF FF FF FF 
    111       166.307 DT     00C2 Rx 8  64 00 00 00 80 40 00 A4 
    112       171.201 DT     00C2 Tx 8  FF FF FF FF FF FF FF FF 
    113       174.309 DT     01A0 Rx 8  00 00 00 00 FE FE 00 1B 
    114       176.285 DT     00C2 Tx 8  FF FF FF FF FF FF FF FF 
    115       176.317 DT     04A0 Rx 8  00 00 00 00 00 00 00 00 
    116       176.569 DT     00C2 Rx 8  64 00 00 00 80 50 00 B4 
    117       178.305 DT     04A8 Rx 8  28 80 03 10 FE 00 B0 F5 
    118       180.231 DT     00C2 Tx 8  FF FF FF FF FF FF FF FF 
    119       180.313 DT     05A0 Rx 8  7B 00 00 00 B0 00 00 ED 
    120       181.807 DT     0320 Rx 8  00 04 43 01 00 00 00 00 
    121       182.233 DT     0050 Rx 4  00 A0 B0 B0 
    122       186.259 DT     00C2 Tx 8  FF FF FF FF FF FF FF FF 
    123       186.315 DT     00C2 Rx 8  64 00 00 00 80 60 00 84 
    124       190.245 DT     00C2 Tx 8  FF FF FF FF FF FF FF FF 
    125       195.241 DT     00C2 Tx 8  FF FF FF FF FF FF FF FF 
    126       194.321 DT     01A0 Rx 8  00 00 00 00 FE FE 00 1C 
    127       196.325 DT     04A0 Rx 8  00 00 00 00 00 00 00 00 
    128       196.581 DT     00C2 Rx 8  64 00 00 00 80 70 00 94 
    129       198.317 DT     04A8 Rx 8  28 80 03 10 FE 00 C0 85 
    130       200.410 DT     00C2 Tx 8  FF FF FF FF FF FF FF FF 
    131       200.319 DT     05A0 Rx 8  7B 00 00 00 C0 00 00 ED 
    132       201.865 DT     0320 Rx 8  00 04 43 01 00 00 00 00 
    133       202.243 DT     0050 Rx 4  00 A0 C0 C0 
    134       205.040 DT     0572 Rx 1  07 
    135       206.234 DT     00C2 Tx 8  FF FF FF FF FF FF FF FF 
    136       206.328 DT     00C2 Rx 8  64 00 00 00 80 80 00 64 
    137       211.232 DT     00C2 Tx 8  FF FF FF FF FF FF FF FF 
    138       214.328 DT     01A0 Rx 8  00 00 00 00 FE FE 00 1D 
    139       216.227 DT     00C2 Tx 8  FF FF FF FF FF FF FF FF 
    140       216.336 DT     04A0 Rx 8  00 00 00 00 00 00 00 00 
    141       216.590 DT     00C2 Rx 8  64 00 00 00 80 90 00 74 
    142       218.326 DT     04A8 Rx 8  28 80 03 10 FE 00 D0 95 
    143       220.334 DT     05A0 Rx 8  7B 00 00 00 D0 00 00 ED 
    144       221.234 DT     00C2 Tx 8  FF FF FF FF FF FF FF FF 
    145       221.872 DT     0320 Rx 8  00 04 43 01 00 00 00 00 
    146       222.250 DT     0050 Rx 4  00 A0 D0 D0 
    147       225.248 DT     00C2 Tx 8  FF FF FF FF FF FF FF FF 
    148       226.334 DT     00C2 Rx 8  64 00 00 00 80 A0 00 44 
    149       230.237 DT     00C2 Tx 8  FF FF FF FF FF FF FF FF 
    150       235.286 DT     00C2 Tx 8  FF FF FF FF FF FF FF FF 
    151       234.338 DT     01A0 Rx 8  00 00 00 00 FE FE 00 1E 
    152       236.344 DT     04A0 Rx 8  00 00 00 00 00 00 00 00 
    153       236.596 DT     00C2 Rx 8  64 00 00 00 80 B0 00 54 
    154       238.336 DT     04A8 Rx 8  28 80 03 10 FE 00 E0 A5 
    155       240.280 DT     00C2 Tx 8  FF FF FF FF FF FF FF FF 
    156       240.338 DT     05A0 Rx 8  7B 00 00 00 E0 00 00 ED 
    157       241.866 DT     0320 Rx 8  00 04 43 01 00 00 00 00 
    158       242.265 DT     0050 Rx 4  00 A0 E0 E0 
    159       246.283 DT     00C2 Tx 8  FF FF FF FF FF FF FF FF 
    160       246.348 DT     00C2 Rx 8  64 00 00 00 80 C0 00 24 
    161       250.312 DT     00C2 Tx 8  FF FF FF FF FF FF FF FF 
    162       254.352 DT     01A0 Rx 8  00 00 00 00 FE FE 00 1F 
    163       256.321 DT     00C2 Tx 8  FF FF FF FF FF FF FF FF 
    164       256.354 DT     04A0 Rx 8  00 00 00 00 00 00 00 00 
    165       256.606 DT     00C2 Rx 8  64 00 00 00 80 D0 00 34 
    166       258.346 DT     04A8 Rx 8  28 80 03 10 FE 00 F0 B5 
    167       260.293 DT     00C2 Tx 8  FF FF FF FF FF FF FF FF 
    168       260.350 DT     05A0 Rx 8  7B 00 00 00 F0 00 00 ED 
    169       261.808 DT     0390 Rx 8  10 00 00 00 40 00 00 00 
    170       262.005 DT     05D0 Rx 6  C0 14 61 20 28 47 
    171       262.249 DT     0320 Rx 8  00 04 43 01 00 00 00 00 
    172       262.427 DT     0050 Rx 4  00 A0 F0 F0 
    173       262.669 DT     0420 Rx 8  82 86 86 FF C0 16 00 00 
    174       262.911 DT     0520 Rx 8  61 4C 00 00 80 00 00 00 
    175       266.230 DT     00C2 Tx 8  FF FF FF FF FF FF FF FF 
    176       266.357 DT     00C2 Rx 8  64 00 00 00 80 E0 00 04 
    177       270.230 DT     00C2 Tx 8  FF FF FF FF FF FF FF FF 
    178       274.362 DT     01A0 Rx 8  00 00 00 00 FE FE 00 10 
    179       275.251 DT     00C2 Tx 8  FF FF FF FF FF FF FF FF 
    180       276.364 DT     04A0 Rx 8  00 00 00 00 00 00 00 00 
    181       276.618 DT     00C2 Rx 8  64 00 00 00 80 F0 00 14 
    182       278.360 DT     04A8 Rx 8  28 80 03 10 FE 00 00 45 
    183       280.220 DT     00C2 Tx 8  FF FF FF FF FF FF FF FF 
    184       280.360 DT     05A0 Rx 8  7B 00 00 00 00 00 00 ED 
    185       281.772 DT     0320 Rx 8  00 04 43 01 00 00 00 00 
    186       282.284 DT     0050 Rx 4  00 A0 00 00 
    187       285.254 DT     00C2 Tx 8  FF FF FF FF FF FF FF FF 
    188       286.366 DT     00C2 Rx 8  64 00 00 00 80 00 00 E4 
    189       290.221 DT     00C2 Tx 8  FF FF FF FF FF FF FF FF 
    190       294.370 DT     01A0 Rx 8  00 00 00 00 FE FE 00 11 
    191       296.252 DT     00C2 Tx 8  FF FF FF FF FF FF FF FF 
    192       296.374 DT     04A0 Rx 8  00 00 00 00 00 00 00 00 
    193       296.628 DT     00C2 Rx 8  64 00 00 00 80 10 00 F4 
    194       298.370 DT     04A8 Rx 8  28 80 03 10 FE 00 10 55 
    195       300.241 DT     00C2 Tx 8  FF FF FF FF FF FF FF FF 
    196       300.372 DT     05A0 Rx 8  7B 00 00 00 10 00 00 ED 
    197       301.776 DT     0320 Rx 8  00 04 43 01 00 00 00 00 
    198       302.292 DT     0050 Rx 4  00 A0 10 10 
    199       305.128 DT     0572 Rx 1  07 
    200       306.385 DT     00C2 Tx 8  FF FF FF FF FF FF FF FF 
    201       306.376 DT     00C2 Rx 8  64 00 00 00 80 20 00 C4 
    202       310.263 DT     00C2 Tx 8  FF FF FF FF FF FF FF FF 
    203       314.376 DT     01A0 Rx 8  00 00 00 00 FE FE 00 12 
    204       316.260 DT     00C2 Tx 8  FF FF FF FF FF FF FF FF 
    205       316.384 DT     04A0 Rx 8  00 00 00 00 00 00 00 00 
    206       316.884 DT     00C2 Rx 8  64 00 00 00 80 30 00 D4 
    207       318.378 DT     04A8 Rx 8  28 80 03 10 FE 00 20 65 
    208       320.380 DT     05A0 Rx 8  7B 00 00 00 20 00 00 ED 
    209       321.269 DT     00C2 Tx 8  FF FF FF FF FF FF FF FF 
    210       321.888 DT     0320 Rx 8  00 04 43 01 00 00 00 00 
    211       322.302 DT     0050 Rx 4  00 A0 20 20 
    212       325.313 DT     00C2 Tx 8  FF FF FF FF FF FF FF FF 
    213       326.383 DT     00C2 Rx 8  64 00 00 00 80 40 00 A4 
    214       330.265 DT     00C2 Tx 8  FF FF FF FF FF FF FF FF 
    215       335.314 DT     00C2 Tx 8  FF FF FF FF FF FF FF FF 
    216       334.385 DT     01A0 Rx 8  00 00 00 00 FE FE 00 13 
    217       336.393 DT     04A0 Rx 8  00 00 00 00 00 00 00 00 
    218       336.646 DT     00C2 Rx 8  64 00 00 00 80 50 00 B4 
    219       338.388 DT     04A8 Rx 8  28 80 03 10 FE 00 30 75 
    220       341.261 DT     00C2 Tx 8  FF FF FF FF FF FF FF FF 
    221       340.389 DT     05A0 Rx 8  7B 00 00 00 30 00 00 ED 
    222       341.886 DT     0320 Rx 8  00 04 43 01 00 00 00 00 
    223       342.312 DT     0050 Rx 4  00 A0 30 30 
    224       346.225 DT     00C2 Tx 8  FF FF FF FF FF FF FF FF 
    225       346.393 DT     00C2 Rx 8  64 00 00 00 80 60 00 84 
    226       350.289 DT     00C2 Tx 8  FF FF FF FF FF FF FF FF 
    227       354.397 DT     01A0 Rx 8  00 00 00 00 FE FE 00 14 
    228       355.257 DT     00C2 Tx 8  FF FF FF FF FF FF FF FF 
    229       356.403 DT     04A0 Rx 8  00 00 00 00 00 00 00 00 
    230       356.659 DT     00C2 Rx 8  64 00 00 00 80 70 00 94 
    231       358.399 DT     04A8 Rx 8  28 80 03 10 FE 00 40 05 
    232       360.397 DT     05A0 Rx 8  7B 00 00 00 40 00 00 ED 
    233       361.264 DT     00C2 Tx 8  FF FF FF FF FF FF FF FF 
    234       361.890 DT     0390 Rx 8  10 00 00 00 40 00 00 00 
    235       362.086 DT     05D0 Rx 6  C0 14 61 20 28 47 
    236       362.330 DT     0320 Rx 8  00 04 43 01 00 00 00 00 
    237       362.502 DT     0050 Rx 4  00 A0 40 40 
    238       364.302 DT     0550 Rx 3  00 80 80 
    239       366.288 DT     00C2 Tx 8  FF FF FF FF FF FF FF FF 
    240       366.404 DT     00C2 Rx 8  64 00 00 00 80 80 00 64 
    241       370.270 DT     00C2 Tx 8  FF FF FF FF FF FF FF FF 
    242       374.404 DT     01A0 Rx 8  00 00 00 00 FE FE 00 15 
    243       375.246 DT     00C2 Tx 8  FF FF FF FF FF FF FF FF 
    244       376.412 DT     04A0 Rx 8  00 00 00 00 00 00 00 00 
    245       376.666 DT     00C2 Rx 8  64 00 00 00 80 90 00 74 
    246       378.406 DT     04A8 Rx 8  28 80 03 10 FE 00 50 15 
    247       381.245 DT     00C2 Tx 8  FF FF FF FF FF FF FF FF 
    248       380.410 DT     05A0 Rx 8  7B 00 00 00 50 00 00 ED 
    249       381.866 DT     0320 Rx 8  00 04 43 01 00 00 00 00 
    250       382.328 DT     0050 Rx 4  00 A0 50 50 
    251       385.248 DT     00C2 Tx 8  FF FF FF FF FF FF FF FF 
    252       386.411 DT     00C2 Rx 8  64 00 00 00 80 A0 00 44 
    253       391.216 DT     00C2 Tx 8  FF FF FF FF FF FF FF FF 
    254       395.231 DT     00C2 Tx 8  FF FF FF FF FF FF FF FF 
    255       394.414 DT     01A0 Rx 8  00 00 00 00 FE FE 00 16 
    256       396.421 DT     04A0 Rx 8  00 00 00 00 00 00 00 00 
    257       396.673 DT     00C2 Rx 8  64 00 00 00 80 B0 00 54 
    258       398.419 DT     04A8 Rx 8  28 80 03 10 FE 00 60 25 
    259       400.255 DT     00C2 Tx 8  FF FF FF FF FF FF FF FF 
    260       400.418 DT     05A0 Rx 8  7B 00 00 00 60 00 00 ED 
    261       401.802 DT     0320 Rx 8  00 04 43 01 00 00 00 00 
    262       402.340 DT     0050 Rx 4  00 A0 60 60 
    263       405.402 DT     00C2 Tx 8  FF FF FF FF FF FF FF FF 
    264       405.220 DT     0572 Rx 1  07 
    265       406.426 DT     00C2 Rx 8  64 00 00 00 80 C0 00 24 
    266       411.211 DT     00C2 Tx 8  FF FF FF FF FF FF FF FF 
    267       414.428 DT     01A0 Rx 8  00 00 00 00 FE FE 00 17 
    268       416.285 DT     00C2 Tx 8  FF FF FF FF FF FF FF FF 
    269       416.432 DT     04A0 Rx 8  00 00 00 00 00 00 00 00 
    270       416.918 DT     00C2 Rx 8  64 00 00 00 80 D0 00 34 
    271       418.424 DT     04A8 Rx 8  28 80 03 10 FE 00 70 35 
    272       420.426 DT     05A0 Rx 8  7B 00 00 00 70 00 00 ED 
    273       421.258 DT     00C2 Tx 8  FF FF FF FF FF FF FF FF 
    274       421.898 DT     0320 Rx 8  00 04 43 01 00 00 00 00 
    275       422.348 DT     0050 Rx 4  00 A0 70 70 
    276       426.531 DT     00C2 Tx 8  FF FF FF FF FF FF FF FF 
    277       426.434 DT     00C2 Rx 8  64 00 00 00 80 E0 00 04 
    278       430.416 DT     00C2 Tx 8  FF FF FF FF FF FF FF FF 
    279       435.415 DT     00C2 Tx 8  FF FF FF FF FF FF FF FF 
    280       434.436 DT     01A0 Rx 8  00 00 00 00 FE FE 00 18 
    281       436.440 DT     04A0 Rx 8  00 00 00 00 00 00 00 00 
    282       436.694 DT     00C2 Rx 8  64 00 00 00 80 F0 00 14 
    283       438.434 DT     04A8 Rx 8  28 80 03 10 FE 00 80 C5 
    284       440.241 DT     00C2 Tx 8  FF FF FF FF FF FF FF FF 
    285       440.434 DT     05A0 Rx 8  7B 00 00 00 80 00 00 ED 
    286       441.822 DT     0320 Rx 8  00 04 43 01 00 00 00 00 
    287       442.360 DT     0050 Rx 4  00 A0 80 80 
    288       446.249 DT     00C2 Tx 8  FF FF FF FF FF FF FF FF 
    289       446.442 DT     00C2 Rx 8  64 00 00 00 80 00 00 E4 
    290       450.232 DT     00C2 Tx 8  FF FF FF FF FF FF FF FF 
    291       454.442 DT     01A0 Rx 8  00 00 00 00 FE FE 00 19 
    292       456.246 DT     00C2 Tx 8  FF FF FF FF FF FF FF FF 
    293       456.450 DT     04A0 Rx 8  00 00 00 00 00 00 00 00 
    294       456.938 DT     00C2 Rx 8  64 00 00 00 80 10 00 F4 
    295       458.440 DT     04A8 Rx 8  28 80 03 10 FE 00 90 D5 
    296       460.242 DT     00C2 Tx 8  FF FF FF FF FF FF FF FF 
    297       460.446 DT     05A0 Rx 8  7B 00 00 00 90 00 00 ED 
    298       461.840 DT     0390 Rx 8  10 00 00 00 40 00 00 00 
    299       462.036 DT     05D0 Rx 6  C0 14 61 20 28 47 
    300       462.280 DT     0320 Rx 8  00 04 43 01 00 00 00 00 
    301       462.451 DT     0050 Rx 4  00 A0 90 90 
    302       462.693 DT     0420 Rx 8  82 86 86 FF C0 16 00 00 
    303       462.939 DT     0520 Rx 8  D0 87 00 00 80 00 00 00 
    304       465.297 DT     00C2 Tx 8  FF FF FF FF FF FF FF FF 
    305       466.452 DT     00C2 Rx 8  64 00 00 00 80 20 00 C4 
    306       470.253 DT     00C2 Tx 8  FF FF FF FF FF FF FF FF 
    307       475.264 DT     00C2 Tx 8  FF FF FF FF FF FF FF FF 
    308       474.456 DT     01A0 Rx 8  00 00 00 00 FE FE 00 1A 
    309       476.460 DT     04A0 Rx 8  00 00 00 00 00 00 00 00 
    310       476.716 DT     00C2 Rx 8  64 00 00 00 80 30 00 D4 
    311       478.452 DT     04A8 Rx 8  28 80 03 10 FE 00 A0 E5 
    312       480.231 DT     00C2 Tx 8  FF FF FF FF FF FF FF FF 
    313       480.454 DT     05A0 Rx 8  7B 00 00 00 A0 00 00 ED 
    314       481.828 DT     0320 Rx 8  00 04 43 01 00 00 00 00 
    315       482.378 DT     0050 Rx 4  00 A0 A0 A0 
    316       485.271 DT     00C2 Tx 8  FF FF FF FF FF FF FF FF 
    317       486.460 DT     00C2 Rx 8  64 00 00 00 80 40 00 A4 
    318       491.246 DT     00C2 Tx 8  FF FF FF FF FF FF FF FF 
    319       494.462 DT     01A0 Rx 8  00 00 00 00 FE FE 00 1B 
    320       495.261 DT     00C2 Tx 8  FF FF FF FF FF FF FF FF 
    321       496.470 DT     04A0 Rx 8  00 00 00 00 00 00 00 00 
    322       496.722 DT     00C2 Rx 8  64 00 00 00 80 50 00 B4 
    323       499.395 DT     00C2 Tx 8  FF FF FF FF FF FF FF FF 
    324       498.458 DT     04A8 Rx 8  28 80 03 10 FE 00 B0 F5 
    325       500.467 DT     05A0 Rx 8  7B 00 00 00 B0 00 00 ED 
    326       501.753 DT     0320 Rx 8  00 04 43 01 00 00 00 00 
    327       502.387 DT     0050 Rx 4  00 A0 B0 B0 
    328       505.280 DT     00C2 Tx 8  FF FF FF FF FF FF FF FF 
    329       505.322 DT     0572 Rx 1  07 
    330       506.469 DT     00C2 Rx 8  64 00 00 00 80 60 00 84 
    331       511.311 DT     00C2 Tx 8  FF FF FF FF FF FF FF FF 
    332       515.258 DT     00C2 Tx 8  FF FF FF FF FF FF FF FF 
    333       514.475 DT     01A0 Rx 8  00 00 00 00 FE FE 00 1C 
    334       516.479 DT     04A0 Rx 8  00 00 00 00 00 00 00 00 
    335       516.735 DT     00C2 Rx 8  64 00 00 00 80 70 00 94 
    336       518.471 DT     04A8 Rx 8  28 80 03 10 FE 00 C0 85 
    337       520.279 DT     00C2 Tx 8  FF FF FF FF FF FF FF FF 
    338       520.473 DT     05A0 Rx 8  7B 00 00 00 C0 00 00 ED 
    339       521.841 DT     0320 Rx 8  00 04 43 01 00 00 00 00 
    340       522.397 DT     0050 Rx 4  00 A0 C0 C0 
    341       525.442 DT     00C2 Tx 8  FF FF FF FF FF FF FF FF 
    342       526.481 DT     00C2 Rx 8  64 00 00 00 80 80 00 64 
    343       530.305 DT     00C2 Tx 8  FF FF FF FF FF FF FF FF 
    344       535.311 DT     00C2 Tx 8  FF FF FF FF FF FF FF FF 
    345       534.482 DT     01A0 Rx 8  00 00 00 00 FE FE 00 1D 
    346       536.490 DT     04A0 Rx 8  00 00 00 00 00 00 00 00 
    347       536.744 DT     00C2 Rx 8  64 00 00 00 80 90 00 74 
    348       538.478 DT     04A8 Rx 8  28 80 03 10 FE 00 D0 95 
    349       540.262 DT     00C2 Tx 8  FF FF FF FF FF FF FF FF 
    350       540.486 DT     05A0 Rx 8  7B 00 00 00 D0 00 00 ED 
    351       541.850 DT     0320 Rx 8  00 04 43 01 00 00 00 00 
    352       542.404 DT     0050 Rx 4  00 A0 D0 D0 
    353       546.245 DT     00C2 Tx 8  FF FF FF FF FF FF FF FF 
    354       546.488 DT     00C2 Rx 8  64 00 00 00 80 A0 00 44 
    355       550.225 DT     00C2 Tx 8  FF FF FF FF FF FF FF FF 
    356       555.242 DT     00C2 Tx 8  FF FF FF FF FF FF FF FF 
    357       554.492 DT     01A0 Rx 8  00 00 00 00 FE FE 00 1E 
    358       556.498 DT     04A0 Rx 8  00 00 00 00 00 00 00 00 
    359       556.750 DT     00C2 Rx 8  64 00 00 00 80 B0 00 54 
    360       558.490 DT     04A8 Rx 8  28 80 03 10 FE 00 E0 A5 
    361       560.492 DT     05A0 Rx 8  7B 00 00 00 E0 00 00 ED 
    362       561.242 DT     00C2 Tx 8  FF FF FF FF FF FF FF FF 
    363       561.888 DT     0390 Rx 8  10 00 00 00 40 00 00 00 
    364       562.084 DT     05D0 Rx 6  C0 14 61 20 28 47 
    365       562.328 DT     0320 Rx 8  00 04 43 01 00 00 00 00 
    366       562.503 DT     0050 Rx 4  00 A0 E0 E0 
    367       564.397 DT     0550 Rx 3  00 80 80 
    368       565.256 DT     00C2 Tx 8  FF FF FF FF FF FF FF FF 
    369       566.503 DT     00C2 Rx 8  64 00 00 00 80 C0 00 24 
    370       568.386 DT     05F2 Rx 2  8C 8C 
    371       570.320 DT     00C2 Tx 8  FF FF FF FF FF FF FF FF 
    372       575.246 DT     00C2 Tx 8  FF FF FF FF FF FF FF FF 
    373       574.506 DT     01A0 Rx 8  00 00 00 00 FE FE 00 1F 
    374       576.508 DT     04A0 Rx 8  00 00 00 00 00 00 00 00 
    375       576.760 DT     00C2 Rx 8  64 00 00 00 80 D0 00 34 
    376       578.498 DT     04A8 Rx 8  28 80 03 10 FE 00 F0 B5 
    377       581.233 DT     00C2 Tx 8  FF FF FF FF FF FF FF FF 
    378       580.504 DT     05A0 Rx 8  7B 00 00 00 F0 00 00 ED 
    379       581.874 DT     0320 Rx 8  00 04 43 01 00 00 00 00 
    380       582.432 DT     0050 Rx 4  00 A0 F0 F0 
    381       585.230 DT     00C2 Tx 8  FF FF FF FF FF FF FF FF 
    382       586.511 DT     00C2 Rx 8  64 00 00 00 80 E0 00 04 
    383       590.236 DT     00C2 Tx 8  FF FF FF FF FF FF FF FF 
    384       594.514 DT     01A0 Rx 8  00 00 00 00 FE FE 00 10 
    385       596.232 DT     00C2 Tx 8  FF FF FF FF FF FF FF FF 
    386       596.517 DT     04A0 Rx 8  00 00 00 00 00 00 00 00 
    387       597.006 DT     00C2 Rx 8  64 00 00 00 80 F0 00 14 
    388       598.513 DT     04A8 Rx 8  28 80 03 10 FE 00 00 45 
    389       600.513 DT     05A0 Rx 8  7B 00 00 00 00 00 00 ED 
    390       601.245 DT     00C2 Tx 8  FF FF FF FF FF FF FF FF 
    391       601.868 DT     0320 Rx 8  00 04 43 01 00 00 00 00 
    392       602.438 DT     0050 Rx 4  00 A0 00 00 
    393       606.326 DT     00C2 Tx 8  FF FF FF FF FF FF FF FF 
    394       605.432 DT     0572 Rx 1  07 
    395       606.520 DT     00C2 Rx 8  64 00 00 00 80 00 00 E4 
    396       610.328 DT     00C2 Tx 8  FF FF FF FF FF FF FF FF 
    397       615.512 DT     00C2 Tx 8  FF FF FF FF FF FF FF FF 
    398       614.524 DT     01A0 Rx 8  00 00 00 00 FE FE 00 11 
    399       616.528 DT     04A0 Rx 8  00 00 00 00 00 00 00 00 
    400       616.782 DT     00C2 Rx 8  64 00 00 00 80 10 00 F4 
    401       618.522 DT     04A8 Rx 8  28 80 03 10 FE 00 10 55 
    402       620.293 DT     00C2 Tx 8  FF FF FF FF FF FF FF FF 
    403       620.525 DT     05A0 Rx 8  7B 00 00 00 10 00 00 ED 
    404       621.820 DT     0320 Rx 8  00 04 43 01 00 00 00 00 
    405       622.446 DT     0050 Rx 4  00 A0 10 10 
    406       625.252 DT     00C2 Tx 8  FF FF FF FF FF FF FF FF 
    407       626.528 DT     00C2 Rx 8  64 00 00 00 80 20 00 C4 
    408       630.240 DT     00C2 Tx 8  FF FF FF FF FF FF FF FF 
    409       634.530 DT     01A0 Rx 8  00 00 00 00 FE FE 00 12 
    410       636.229 DT     00C2 Tx 8  FF FF FF FF FF FF FF FF 
    411       636.537 DT     04A0 Rx 8  00 00 00 00 00 00 00 00 
    412       637.028 DT     00C2 Rx 8  64 00 00 00 80 30 00 D4 
    413       638.532 DT     04A8 Rx 8  28 80 03 10 FE 00 20 65 
    414       640.215 DT     00C2 Tx 8  FF FF FF FF FF FF FF FF 
    415       640.533 DT     05A0 Rx 8  7B 00 00 00 20 00 00 ED 
    416       641.853 DT     0320 Rx 8  00 04 43 01 00 00 00 00 
    417       642.456 DT     0050 Rx 4  00 A0 20 20 
    418       645.227 DT     00C2 Tx 8  FF FF FF FF FF FF FF FF 
    419       646.536 DT     00C2 Rx 8  64 00 00 00 80 40 00 A4 
    420       650.211 DT     00C2 Tx 8  FF FF FF FF FF FF FF FF 
    421       655.240 DT     00C2 Tx 8  FF FF FF FF FF FF FF FF 
    422       654.539 DT     01A0 Rx 8  00 00 00 00 FE FE 00 13 
    423       656.545 DT     04A0 Rx 8  00 00 00 00 00 00 00 00 
    424       656.798 DT     00C2 Rx 8  64 00 00 00 80 50 00 B4 
    425       658.540 DT     04A8 Rx 8  28 80 03 10 FE 00 30 75 
    426       660.248 DT     00C2 Tx 8  FF FF FF FF FF FF FF FF 
    427       660.543 DT     05A0 Rx 8  7B 00 00 00 30 00 00 ED 
    428       661.797 DT     0390 Rx 8  10 00 00 00 40 00 00 00 
    429       661.993 DT     05D0 Rx 6  C0 14 61 20 28 47 
    430       662.237 DT     0320 Rx 8  00 04 43 01 00 00 00 00 
    431       662.477 DT     0420 Rx 8  82 86 87 FF C0 16 00 00 
    432       662.649 DT     0050 Rx 4  00 A0 30 30 
    433       662.895 DT     0520 Rx 8  15 C0 00 00 80 00 00 00 
    434       663.146 DT     05D2 Rx 8  00 00 00 00 00 00 00 00 
    435       666.221 DT     00C2 Tx 8  FF FF FF FF FF FF FF FF 
    436       666.545 DT     00C2 Rx 8  64 00 00 00 80 60 00 84 
    437       670.221 DT     00C2 Tx 8  FF FF FF FF FF FF FF FF 
    438       674.551 DT     01A0 Rx 8  00 00 00 00 FE FE 00 14 
    439       676.255 DT     00C2 Tx 8  FF FF FF FF FF FF FF FF 
    440       676.557 DT     04A0 Rx 8  00 00 00 00 00 00 00 00 
    441       677.047 DT     00C2 Rx 8  64 00 00 00 80 70 00 94 
    442       678.553 DT     04A8 Rx 8  28 80 03 10 FE 00 40 05 
    443       680.551 DT     05A0 Rx 8  7B 00 00 00 40 00 00 ED 
    444       681.251 DT     00C2 Tx 8  FF FF FF FF FF FF FF FF 
    445       681.867 DT     0320 Rx 8  00 04 43 01 00 00 00 00 
    446       682.475 DT     0050 Rx 4  00 A0 40 40 
    447       686.231 DT     00C2 Tx 8  FF FF FF FF FF FF FF FF 
    448       686.557 DT     00C2 Rx 8  64 00 00 00 80 80 00 64 
    449       691.241 DT     00C2 Tx 8  FF FF FF FF FF FF FF FF 
    450       695.321 DT     00C2 Tx 8  FF FF FF FF FF FF FF FF 
    451       694.559 DT     01A0 Rx 8  00 00 00 00 FE FE 00 15 
    452       696.565 DT     04A0 Rx 8  00 00 00 00 00 00 00 00 
    453       696.819 DT     00C2 Rx 8  64 00 00 00 80 90 00 74 
    454       698.559 DT     04A8 Rx 8  28 80 03 10 FE 00 50 15 
    455       700.563 DT     05A0 Rx 8  7B 00 00 00 50 00 00 ED 
    456       701.347 DT     00C2 Tx 8  FF FF FF FF FF FF FF FF 
    457       701.987 DT     0320 Rx 8  00 04 43 01 00 00 00 00 
    458       702.481 DT     0050 Rx 4  00 A0 50 50 
    459       705.311 DT     00C2 Tx 8  FF FF FF FF FF FF FF FF 
    460       705.499 DT     0572 Rx 1  07 
    461       706.565 DT     00C2 Rx 8  64 00 00 00 80 A0 00 44 
    462       709.592 DT     00C2 Tx 8  FF FF FF FF FF FF FF FF 
    463       714.567 DT     01A0 Rx 8  00 00 00 00 FE FE 00 16 
    464       716.443 DT     00C2 Tx 8  FF FF FF FF FF FF FF FF 
    465       716.575 DT     04A0 Rx 8  00 00 00 00 00 00 00 00 
    466       716.827 DT     00C2 Rx 8  64 00 00 00 80 B0 00 54 
    467       718.573 DT     04A8 Rx 8  28 80 03 10 FE 00 60 25 
    468       720.583 DT     05A0 Rx 8  7B 00 00 00 60 00 00 ED 
    469       721.734 DT     00C2 Tx 8  FF FF FF FF FF FF FF FF 
    470       721.733 DT     0320 Rx 8  00 04 43 01 00 00 00 00 
    471       722.505 DT     0050 Rx 4  00 A0 60 60 
    472       725.274 DT     00C2 Tx 8  FF FF FF FF FF FF FF FF 
    473       726.591 DT     00C2 Rx 8  64 00 00 00 80 C0 00 24 
    474       730.319 DT     00C2 Tx 8  FF FF FF FF FF FF FF FF 
    475       735.312 DT     00C2 Tx 8  FF FF FF FF FF FF FF FF 
    476       734.593 DT     01A0 Rx 8  00 00 00 00 FE FE 00 17 
    477       736.597 DT     04A0 Rx 8  00 00 00 00 00 00 00 00 
    478       736.849 DT     00C2 Rx 8  64 00 00 00 80 D0 00 34 
    479       738.589 DT     04A8 Rx 8  28 80 03 10 FE 00 70 35 
    480       740.591 DT     05A0 Rx 8  7B 00 00 00 70 00 00 ED 
    481       741.264 DT     00C2 Tx 8  FF FF FF FF FF FF FF FF 
    482       741.915 DT     0320 Rx 8  00 04 43 01 00 00 00 00 
    483       742.511 DT     0050 Rx 4  00 A0 70 70 
    484       745.299 DT     00C2 Tx 8  FF FF FF FF FF FF FF FF 
    485       746.599 DT     00C2 Rx 8  64 00 00 00 80 E0 00 04 
    486       750.296 DT     00C2 Tx 8  FF FF FF FF FF FF FF FF 
    487       754.599 DT     01A0 Rx 8  00 00 00 00 FE FE 00 18 
    488       755.295 DT     00C2 Tx 8  FF FF FF FF FF FF FF FF 
    489       756.605 DT     04A0 Rx 8  00 00 00 00 00 00 00 00 
    490       756.859 DT     00C2 Rx 8  64 00 00 00 80 F0 00 14 
    491       758.599 DT     04A8 Rx 8  28 80 03 10 FE 00 80 C5 
    492       761.311 DT     00C2 Tx 8  FF FF FF FF FF FF FF FF 
    493       760.599 DT     05A0 Rx 8  7B 00 00 00 80 00 00 ED 
    494       761.942 DT     0390 Rx 8  10 00 00 00 40 00 00 00 
    495       762.138 DT     05D0 Rx 6  C0 14 61 20 28 47 
    496       762.382 DT     0320 Rx 8  00 04 43 01 00 00 00 00 
    497       762.556 DT     0050 Rx 4  00 A0 80 80 
    498       764.504 DT     0550 Rx 3  00 80 80 
    499       765.261 DT     00C2 Tx 8  FF FF FF FF FF FF FF FF 
    500       766.606 DT     00C2 Rx 8  64 00 00 00 80 00 00 E4 
    501       770.267 DT     00C2 Tx 8  FF FF FF FF FF FF FF FF 
    502       775.280 DT     00C2 Tx 8  FF FF FF FF FF FF FF FF 
    503       774.608 DT     01A0 Rx 8  00 00 00 00 FE FE 00 19 
    504       776.614 DT     04A0 Rx 8  00 00 00 00 00 00 00 00 
    505       776.868 DT     00C2 Rx 8  64 00 00 00 80 10 00 F4 
    506       778.604 DT     04A8 Rx 8  28 80 03 10 FE 00 90 D5 
    507       780.610 DT     05A0 Rx 8  7B 00 00 00 90 00 00 ED 
    508       781.249 DT     00C2 Tx 8  FF FF FF FF FF FF FF FF 
    509       781.880 DT     0320 Rx 8  00 04 43 01 00 00 00 00 
    510       782.530 DT     0050 Rx 4  00 A0 90 90 
    511       785.239 DT     00C2 Tx 8  FF FF FF FF FF FF FF FF 
    512       786.617 DT     00C2 Rx 8  64 00 00 00 80 20 00 C4 
    513       790.243 DT     00C2 Tx 8  FF FF FF FF FF FF FF FF 
    514       795.233 DT     00C2 Tx 8  FF FF FF FF FF FF FF FF 
    515       794.619 DT     01A0 Rx 8  00 00 00 00 FE FE 00 1A 
    516       796.625 DT     04A0 Rx 8  00 00 00 00 00 00 00 00 
    517       796.881 DT     00C2 Rx 8  64 00 00 00 80 30 00 D4 
    518       798.617 DT     04A8 Rx 8  28 80 03 10 FE 00 A0 E5 
    519       800.301 DT     00C2 Tx 8  FF FF FF FF FF FF FF FF 
    520       800.619 DT     05A0 Rx 8  7B 00 00 00 A0 00 00 ED 
    521       801.797 DT     0320 Rx 8  00 04 43 01 00 00 00 00 
    522       802.543 DT     0050 Rx 4  00 A0 A0 A0 
    523       805.254 DT     00C2 Tx 8  FF FF FF FF FF FF FF FF 
    524       805.755 DT     0572 Rx 1  07 
    525       806.623 DT     00C2 Rx 8  64 00 00 00 80 40 00 A4 
    526       810.271 DT     00C2 Tx 8  FF FF FF FF FF FF FF FF 
    527       815.339 DT     00C2 Tx 8  FF FF FF FF FF FF FF FF 
    528       814.627 DT     01A0 Rx 8  00 00 00 00 FE FE 00 1B 
    529       816.633 DT     04A0 Rx 8  00 00 00 00 00 00 00 00 
    530       816.885 DT     00C2 Rx 8  64 00 00 00 80 50 00 B4 
    531       818.623 DT     04A8 Rx 8  28 80 03 10 FE 00 B0 F5 
    532       820.421 DT     00C2 Tx 8  FF FF FF FF FF FF FF FF 
    533       820.631 DT     05A0 Rx 8  7B 00 00 00 B0 00 00 ED 
    534       821.820 DT     0320 Rx 8  00 04 43 01 00 00 00 00 
    535       822.550 DT     0050 Rx 4  00 A0 B0 B0 
    536       826.242 DT     00C2 Tx 8  FF FF FF FF FF FF FF FF 
    537       826.633 DT     00C2 Rx 8  64 00 00 00 80 60 00 84 
    538       830.253 DT     00C2 Tx 8  FF FF FF FF FF FF FF FF 
    539       835.247 DT     00C2 Tx 8  FF FF FF FF FF FF FF FF 
    540       834.637 DT     01A0 Rx 8  00 00 00 00 FE FE 00 1C 
    541       836.643 DT     04A0 Rx 8  00 00 00 00 00 00 00 00 
    542       836.899 DT     00C2 Rx 8  64 00 00 00 80 70 00 94 
    543       838.635 DT     04A8 Rx 8  28 80 03 10 FE 00 C0 85 
    544       840.243 DT     00C2 Tx 8  FF FF FF FF FF FF FF FF 
    545       840.637 DT     05A0 Rx 8  7B 00 00 00 C0 00 00 ED 
    546       841.831 DT     0320 Rx 8  00 04 43 01 00 00 00 00 
    547       842.561 DT     0050 Rx 4  00 A0 C0 C0 
    548       846.231 DT     00C2 Tx 8  FF FF FF FF FF FF FF FF 
    549       846.876 DT     00C2 Rx 8  64 00 00 00 80 80 00 64 
    550       850.219 DT     00C2 Tx 8  FF FF FF FF FF FF FF FF 
    551       855.244 DT     00C2 Tx 8  FF FF FF FF FF FF FF FF 
    552       854.646 DT     01A0 Rx 8  00 00 00 00 FE FE 00 1D 
    553       856.655 DT     04A0 Rx 8  00 00 00 00 00 00 00 00 
    554       856.909 DT     00C2 Rx 8  64 00 00 00 80 90 00 74 
    555       858.643 DT     04A8 Rx 8  28 80 03 10 FE 00 D0 95 
    556       861.261 DT     00C2 Tx 8  FF FF FF FF FF FF FF FF 
    557       860.651 DT     05A0 Rx 8  7B 00 00 00 D0 00 00 ED 
    558       861.917 DT     0390 Rx 8  10 00 00 00 40 00 00 00 
    559       862.113 DT     05D0 Rx 6  C0 14 61 20 28 47 
    560       862.357 DT     0320 Rx 8  00 04 43 01 00 00 00 00 
    561       862.599 DT     0420 Rx 8  82 86 86 FF C0 16 00 00 
    562       862.767 DT     0050 Rx 4  00 A0 D0 D0 
    563       863.018 DT     0520 Rx 8  01 00 00 00 80 00 00 00 
    564       865.254 DT     00C2 Tx 8  FF FF FF FF FF FF FF FF 
    565       866.654 DT     00C2 Rx 8  64 00 00 00 80 A0 00 44 
    566       871.246 DT     00C2 Tx 8  FF FF FF FF FF FF FF FF 
    567       874.655 DT     01A0 Rx 8  00 00 00 00 FE FE 00 1E 
    568       875.260 DT     00C2 Tx 8  FF FF FF FF FF FF FF FF 
    569       876.664 DT     04A0 Rx 8  00 00 00 00 00 00 00 00 
    570       876.916 DT     00C2 Rx 8  64 00 00 00 80 B0 00 54 
    571       878.654 DT     04A8 Rx 8  28 80 03 10 FE 00 E0 A5 
    572       880.655 DT     05A0 Rx 8  7B 00 00 00 E0 00 00 ED 
    573       881.254 DT     00C2 Tx 8  FF FF FF FF FF FF FF FF 
    574       881.880 DT     0320 Rx 8  00 04 43 01 00 00 00 00 
    575       882.584 DT     0050 Rx 4  00 A0 E0 E0 
    576       886.238 DT     00C2 Tx 8  FF FF FF FF FF FF FF FF 
    577       886.884 DT     00C2 Rx 8  64 00 00 00 80 C0 00 24 
    578       891.240 DT     00C2 Tx 8  FF FF FF FF FF FF FF FF 
    579       895.260 DT     00C2 Tx 8  FF FF FF FF FF FF FF FF 
    580       894.672 DT     01A0 Rx 8  00 00 00 00 FE FE 00 1F 
    581       896.672 DT     04A0 Rx 8  00 00 00 00 00 00 00 00 
    582       896.924 DT     00C2 Rx 8  64 00 00 00 80 D0 00 34 
    583       898.664 DT     04A8 Rx 8  28 80 03 10 FE 00 F0 B5 
    584       901.254 DT     00C2 Tx 8  FF FF FF FF FF FF FF FF 
    585       900.668 DT     05A0 Rx 8  7B 00 00 00 F0 00 00 ED 
    586       901.886 DT     0320 Rx 8  00 04 43 01 00 00 00 00 
    587       902.596 DT     0050 Rx 4  00 A0 F0 F0 
    588       905.389 DT     00C2 Tx 8  FF FF FF FF FF FF FF FF 
    589       906.132 DT     0572 Rx 1  07 
    590       906.676 DT     00C2 Rx 8  64 00 00 00 80 E0 00 04 
    591       910.388 DT     00C2 Tx 8  FF FF FF FF FF FF FF FF 
    592       915.280 DT     00C2 Tx 8  FF FF FF FF FF FF FF FF 
    593       914.679 DT     01A0 Rx 8  00 00 00 00 FE FE 00 10 
    594       916.683 DT     04A0 Rx 8  00 00 00 00 00 00 00 00 
    595       916.937 DT     00C2 Rx 8  64 00 00 00 80 F0 00 14 
    596       918.677 DT     04A8 Rx 8  28 80 03 10 FE 00 00 45 
    597       920.677 DT     05A0 Rx 8  7B 00 00 00 00 00 00 ED 
    598       921.258 DT     00C2 Tx 8  FF FF FF FF FF FF FF FF 
    599       921.905 DT     0320 Rx 8  00 04 43 01 00 00 00 00 
    600       922.603 DT     0050 Rx 4  00 A0 00 00 
    601       925.276 DT     00C2 Tx 8  FF FF FF FF FF FF FF FF 
    602       926.684 DT     00C2 Rx 8  64 00 00 00 80 00 00 E4 
    603       930.246 DT     00C2 Tx 8  FF FF FF FF FF FF FF FF 
    604       935.273 DT     00C2 Tx 8  FF FF FF FF FF FF FF FF 
    605       934.689 DT     01A0 Rx 8  00 00 00 00 FE FE 00 11 
    606       936.691 DT     04A0 Rx 8  00 00 00 00 00 00 00 00 
    607       936.946 DT     00C2 Rx 8  64 00 00 00 80 10 00 F4 
    608       938.687 DT     04A8 Rx 8  28 80 03 10 FE 00 10 55 
    609       939.709 DT     00C2 Tx 8  FF FF FF FF FF FF FF FF 
    610       940.690 DT     05A0 Rx 8  7B 00 00 00 10 00 00 ED 
    611       941.772 DT     0320 Rx 8  00 04 43 01 00 00 00 00 
    612       942.610 DT     0050 Rx 4  00 A0 10 10 
    613       945.248 DT     00C2 Tx 8  FF FF FF FF FF FF FF FF 
    614       946.694 DT     00C2 Rx 8  64 00 00 00 80 20 00 C4 
    615       950.246 DT     00C2 Tx 8  FF FF FF FF FF FF FF FF 
    616       955.263 DT     00C2 Tx 8  FF FF FF FF FF FF FF FF 
    617       954.693 DT     01A0 Rx 8  00 00 00 00 FE FE 00 12 
    618       956.702 DT     04A0 Rx 8  00 00 00 00 00 00 00 00 
    619       956.958 DT     00C2 Rx 8  64 00 00 00 80 30 00 D4 
    620       958.696 DT     04A8 Rx 8  28 80 03 10 FE 00 20 65 
    621       960.241 DT     00C2 Tx 8  FF FF FF FF FF FF FF FF 
    622       960.880 DT     05A0 Rx 8  7B 00 00 00 20 00 00 ED 
    623       961.808 DT     0390 Rx 8  10 00 00 00 40 00 00 00 
    624       962.004 DT     05D0 Rx 6  C0 14 61 20 28 47 
    625       962.248 DT     0320 Rx 8  00 04 43 01 00 00 00 00 
    626       962.618 DT     0050 Rx 4  00 A0 20 20 
    627       965.315 DT     00C2 Tx 8  FF FF FF FF FF FF FF FF 
    628       964.600 DT     0550 Rx 3  00 80 80 
    629       966.700 DT     00C2 Rx 8  64 00 00 00 80 40 00 A4 
    630       970.259 DT     00C2 Tx 8  FF FF FF FF FF FF FF FF 
    631       975.286 DT     00C2 Tx 8  FF FF FF FF FF FF FF FF 
    632       974.702 DT     01A0 Rx 8  00 00 00 00 FE FE 00 13 
    633       976.710 DT     04A0 Rx 8  00 00 00 00 00 00 00 00 
    634       976.962 DT     00C2 Rx 8  64 00 00 00 80 50 00 B4 
    635       978.705 DT     04A8 Rx 8  28 80 03 10 FE 00 30 75 
    636       980.278 DT     00C2 Tx 8  FF FF FF FF FF FF FF FF 
    637       980.900 DT     05A0 Rx 8  7B 00 00 00 30 00 00 ED 
    638       981.805 DT     0320 Rx 8  00 04 43 01 00 00 00 00 
    639       982.629 DT     0050 Rx 4  00 A0 30 30 
    640       985.284 DT     00C2 Tx 8  FF FF FF FF FF FF FF FF 
    641       986.712 DT     00C2 Rx 8  64 00 00 00 80 60 00 84 
    642       991.257 DT     00C2 Tx 8  FF FF FF FF FF FF FF FF 
    643       995.275 DT     00C2 Tx 8  FF FF FF FF FF FF FF FF 
    644       994.715 DT     01A0 Rx 8  00 00 00 00 FE FE 00 14 
    645       996.720 DT     04A0 Rx 8  00 00 00 00 00 00 00 00 
    646       996.976 DT     00C2 Rx 8  64 00 00 00 80 70 00 94 
    647       998.718 DT     04A8 Rx 8  28 80 03 10 FE 00 40 05 
    648      1000.261 DT     00C2 Tx 8  FF FF FF FF FF FF FF FF 
    649      1000.890 DT     05A0 Rx 8  7B 00 00 00 40 00 00 ED 
    650      1001.822 DT     0320 Rx 8  00 04 43 01 00 00 00 00 
    651      1002.638 DT     0050 Rx 4  00 A0 40 40 
    652      1005.255 DT     00C2 Tx 8  FF FF FF FF FF FF FF FF 
    653      1005.818 DT     0572 Rx 1  07 
    654      1006.722 DT     00C2 Rx 8  64 00 00 00 80 80 00 64 
    655      1010.256 DT     00C2 Tx 8  FF FF FF FF FF FF FF FF 
    656      1014.722 DT     01A0 Rx 8  00 00 00 00 FE FE 00 15 
    657      1016.281 DT     00C2 Tx 8  FF FF FF FF FF FF FF FF 
    658      1016.914 DT     04A0 Rx 8  00 00 00 00 00 00 00 00 
    659      1017.168 DT     00C2 Rx 8  64 00 00 00 80 90 00 74 
    660      1018.722 DT     04A8 Rx 8  28 80 03 10 FE 00 50 15 
    661      1020.266 DT     00C2 Tx 8  FF FF FF FF FF FF FF FF 
    662      1020.916 DT     05A0 Rx 8  7B 00 00 00 50 00 00 ED 
    663      1021.785 DT     0320 Rx 8  00 04 43 01 00 00 00 00 
    664      1022.647 DT     0050 Rx 4  00 A0 50 50 
    665      1026.263 DT     00C2 Tx 8  FF FF FF FF FF FF FF FF 
    666      1026.905 DT     00C2 Rx 8  64 00 00 00 80 A0 00 44 
    667      1031.286 DT     00C2 Tx 8  FF FF FF FF FF FF FF FF 
    668      1035.285 DT     00C2 Tx 8  FF FF FF FF FF FF FF FF 
    669      1034.733 DT     01A0 Rx 8  00 00 00 00 FE FE 00 16 
    670      1036.739 DT     04A0 Rx 8  00 00 00 00 00 00 00 00 
    671      1036.991 DT     00C2 Rx 8  64 00 00 00 80 B0 00 54 
    672      1038.737 DT     04A8 Rx 8  28 80 03 10 FE 00 60 25 
    673      1040.273 DT     00C2 Tx 8  FF FF FF FF FF FF FF FF 
    674      1040.905 DT     05A0 Rx 8  7B 00 00 00 60 00 00 ED 
    675      1041.853 DT     0320 Rx 8  00 04 43 01 00 00 00 00 
    676      1042.657 DT     0050 Rx 4  00 A0 60 60 
    677      1045.235 DT     00C2 Tx 8  FF FF FF FF FF FF FF FF 
    678      1046.744 DT     00C2 Rx 8  64 00 00 00 80 C0 00 24 
    679      1050.217 DT     00C2 Tx 8  FF FF FF FF FF FF FF FF 
    680      1054.746 DT     01A0 Rx 8  00 00 00 00 FE FE 00 17 
    681      1056.243 DT     00C2 Tx 8  FF FF FF FF FF FF FF FF 
    682      1056.898 DT     04A0 Rx 8  00 00 00 00 00 00 00 00 
    683      1057.150 DT     00C2 Rx 8  64 00 00 00 80 D0 00 34 
    684      1058.742 DT     04A8 Rx 8  28 80 03 10 FE 00 70 35 
    685      1060.238 DT     00C2 Tx 8  FF FF FF FF FF FF FF FF 
    686      1060.878 DT     05A0 Rx 8  7B 00 00 00 70 00 00 ED 
    687      1061.770 DT     0390 Rx 8  10 00 00 00 40 00 00 00 
    688      1061.967 DT     05D0 Rx 6  C0 14 61 20 28 47 
    689      1062.211 DT     0320 Rx 8  00 04 43 01 00 00 00 00 
    690      1062.451 DT     0420 Rx 8  82 86 87 FF C0 16 00 00 
    691      1062.693 DT     0520 Rx 8  61 4C 00 00 80 00 00 00 
    692      1062.863 DT     0050 Rx 4  00 A0 70 70 
    693      1066.252 DT     00C2 Tx 8  FF FF FF FF FF FF FF FF 
    694      1066.884 DT     00C2 Rx 8  64 00 00 00 80 E0 00 04 
    695      1068.637 DT     05F2 Rx 2  8C 8C 
    696      1070.305 DT     00C2 Tx 8  FF FF FF FF FF FF FF FF 
    697      1074.753 DT     01A0 Rx 8  00 00 00 00 FE FE 00 18 
    698      1076.252 DT     00C2 Tx 8  FF FF FF FF FF FF FF FF 
    699      1076.911 DT     04A0 Rx 8  00 00 00 00 00 00 00 00 
    700      1077.165 DT     00C2 Rx 8  64 00 00 00 80 F0 00 14 
    701      1078.751 DT     04A8 Rx 8  28 80 03 10 FE 00 80 C5 
    702      1080.751 DT     05A0 Rx 8  7B 00 00 00 80 00 00 ED 
    703      1081.268 DT     00C2 Tx 8  FF FF FF FF FF FF FF FF 
    704      1081.918 DT     0320 Rx 8  00 04 43 01 00 00 00 00 
    705      1082.679 DT     0050 Rx 4  00 A0 80 80 
    706      1085.250 DT     00C2 Tx 8  FF FF FF FF FF FF FF FF 
    707      1086.760 DT     00C2 Rx 8  64 00 00 00 80 00 00 E4 
    708      1090.250 DT     00C2 Tx 8  FF FF FF FF FF FF FF FF 
    709      1094.761 DT     01A0 Rx 8  00 00 00 00 FE FE 00 19 
    710      1095.880 DT     00C2 Tx 8  FF FF FF FF FF FF FF FF 
    711      1096.768 DT     04A0 Rx 8  00 00 00 00 00 00 00 00 
    712      1097.022 DT     00C2 Rx 8  64 00 00 00 80 10 00 F4 
    713      1098.758 DT     04A8 Rx 8  28 80 03 10 FE 00 90 D5 
    714      1100.853 DT     00C2 Tx 8  FF FF FF FF FF FF FF FF 
    715      1100.763 DT     05A0 Rx 8  7B 00 00 00 90 00 00 ED 
    716      1101.770 DT     0320 Rx 8  00 04 43 01 00 00 00 00 
    717      1102.684 DT     0050 Rx 4  00 A0 90 90 
    718      1104.835 DT     00C2 Tx 8  FF FF FF FF FF FF FF FF 
    719      1105.908 DT     0572 Rx 1  07 
    720      1106.770 DT     00C2 Rx 8  64 00 00 00 80 20 00 C4 
    721      1110.421 DT     00C2 Tx 8  FF FF FF FF FF FF FF FF 
    722      1114.772 DT     01A0 Rx 8  00 00 00 00 FE FE 00 1A 
    723      1116.378 DT     00C2 Tx 8  FF FF FF FF FF FF FF FF 
    724      1116.778 DT     04A0 Rx 8  00 00 00 00 00 00 00 00 
    725      1117.269 DT     00C2 Rx 8  64 00 00 00 80 30 00 D4 
    726      1118.769 DT     04A8 Rx 8  28 80 03 10 FE 00 A0 E5 
    727      1120.333 DT     00C2 Tx 8  FF FF FF FF FF FF FF FF 
    728      1120.983 DT     05A0 Rx 8  7B 00 00 00 A0 00 00 ED 
    729      1121.769 DT     0320 Rx 8  00 04 43 01 00 00 00 00 
    730      1122.697 DT     0050 Rx 4  00 A0 A0 A0 
    731      1125.502 DT     00C2 Tx 8  FF FF FF FF FF FF FF FF 
    732      1126.777 DT     00C2 Rx 8  64 00 00 00 80 40 00 A4 
    733      1129.521 DT     00C2 Tx 8  FF FF FF FF FF FF FF FF 
    734      1134.499 DT     00C2 Tx 8  FF FF FF FF FF FF FF FF 
    735      1134.781 DT     01A0 Rx 8  00 00 00 00 FE FE 00 1B 
    736      1136.787 DT     04A0 Rx 8  00 00 00 00 00 00 00 00 
    737      1137.039 DT     00C2 Rx 8  64 00 00 00 80 50 00 B4 
    738      1138.777 DT     04A8 Rx 8  28 80 03 10 FE 00 B0 F5 
    739      1139.525 DT     00C2 Tx 8  FF FF FF FF FF FF FF FF 
    740      1140.785 DT     05A0 Rx 8  7B 00 00 00 B0 00 00 ED 
    741      1141.727 DT     0320 Rx 8  00 04 43 01 00 00 00 00 
    742      1142.703 DT     0050 Rx 4  00 A0 B0 B0 
    743      1145.968 DT     00C2 Tx 8  FF FF FF FF FF FF FF FF 
    744      1146.787 DT     00C2 Rx 8  64 00 00 00 80 60 00 84 
    745      1150.035 DT     00C2 Tx 8  FF FF FF FF FF FF FF FF 
    746      1154.791 DT     01A0 Rx 8  00 00 00 00 FE FE 00 1C 
    747      1155.966 DT     00C2 Tx 8  FF FF FF FF FF FF FF FF 
    748      1156.797 DT     04A0 Rx 8  00 00 00 00 00 00 00 00 
    749      1157.053 DT     00C2 Rx 8  64 00 00 00 80 70 00 94 
    750      1158.787 DT     04A8 Rx 8  28 80 03 10 FE 00 C0 85 
    751      1159.965 DT     00C2 Tx 8  FF FF FF FF FF FF FF FF 
    752      1160.789 DT     05A0 Rx 8  7B 00 00 00 C0 00 00 ED 
    753      1161.697 DT     0390 Rx 8  10 00 00 00 40 00 00 00 
    754      1161.894 DT     05D0 Rx 6  C0 14 61 20 28 47 
    755      1162.138 DT     0320 Rx 8  00 04 43 01 00 00 00 00 
    756      1162.716 DT     0050 Rx 4  00 A0 C0 C0 
    757      1164.921 DT     00C2 Tx 8  FF FF FF FF FF FF FF FF 
    758      1164.696 DT     0550 Rx 3  00 80 80 
    759      1166.798 DT     00C2 Rx 8  64 00 00 00 80 80 00 64 
    760      1169.963 DT     00C2 Tx 8  FF FF FF FF FF FF FF FF 
    761      1174.969 DT     00C2 Tx 8  FF FF FF FF FF FF FF FF 
    762      1174.801 DT     01A0 Rx 8  00 00 00 00 FE FE 00 1D 
    763      1176.807 DT     04A0 Rx 8  00 00 00 00 00 00 00 00 
    764      1177.061 DT     00C2 Rx 8  64 00 00 00 80 90 00 74 
    765      1178.797 DT     04A8 Rx 8  28 80 03 10 FE 00 D0 95 
    766      1179.951 DT     00C2 Tx 8  FF FF FF FF FF FF FF FF 
    767      1180.805 DT     05A0 Rx 8  7B 00 00 00 D0 00 00 ED 
    768      1181.697 DT     0320 Rx 8  00 04 43 01 00 00 00 00 
    769      1182.721 DT     0050 Rx 4  00 A0 D0 D0 
    770      1184.945 DT     00C2 Tx 8  FF FF FF FF FF FF FF FF 
    771      1186.807 DT     00C2 Rx 8  64 00 00 00 80 A0 00 44 
    772      1189.953 DT     00C2 Tx 8  FF FF FF FF FF FF FF FF 
    773      1194.985 DT     00C2 Tx 8  FF FF FF FF FF FF FF FF 
    774      1194.809 DT     01A0 Rx 8  00 00 00 00 FE FE 00 1E 
    775      1196.817 DT     04A0 Rx 8  00 00 00 00 00 00 00 00 
    776      1197.069 DT     00C2 Rx 8  64 00 00 00 80 B0 00 54 
    777      1198.807 DT     04A8 Rx 8  28 80 03 10 FE 00 E0 A5 
    778      1199.987 DT     00C2 Tx 8  FF FF FF FF FF FF FF FF 
    779      1200.809 DT     05A0 Rx 8  7B 00 00 00 E0 00 00 ED 
    780      1201.701 DT     0320 Rx 8  00 04 43 01 00 00 00 00 
    781      1202.737 DT     0050 Rx 4  00 A0 E0 E0 
